T63D8 000:000.587   SEGGER J-Link V8.48 Log File
T63D8 000:000.709   DLL Compiled: Jul  2 2025 11:58:31
T63D8 000:000.715   Logging started @ 2025-07-18 07:41
T63D8 000:000.721   Process: C:\Users\greentor\.eclipse\com.renesas.platform_987640367\DebugComp\RA\e2-server-gdb.exe
T63D8 000:000.732 - 0.726ms 
T63D8 000:000.749 JLINK_GetDLLVersion()
T63D8 000:000.754 - 0.006ms returns 84800
T63D8 000:003.043 JLINK_OpenEx(...)
T63D8 000:010.695   Firmware: J-Link OB-RA4M2-CortexM compiled Jun 25 2025 17:00:45
T63D8 000:011.396   Firmware: J-Link OB-RA4M2-CortexM compiled Jun 25 2025 17:00:45
T63D8 000:023.332   Hardware: V1.00
T63D8 000:023.355   S/N: 1100016602
T63D8 000:023.366   OEM: SEGGER
T63D8 000:023.377   Feature(s): None
T63D8 000:023.924   Bootloader: 2023 Apr 26
T63D8 000:024.369   USB speed mode: Full speed (12 MBit/s)
T63D8 000:024.783   TELNET listener socket opened on port 19021
T63D8 000:024.959   WEBSRV WEBSRV_Init(): Starting webserver thread(s)
T63D8 000:025.125   WEBSRV Webserver running on local port 19080
T63D8 000:025.291   Looking for J-Link GUI Server exe at: C:\Users\greentor\.eclipse\com.renesas.platform_987640367\DebugComp\RA\ARM\Segger_v8.12.6\JLinkGUIServer.exe
T63D8 000:025.380   Looking for J-Link GUI Server exe at: E:\JLink_V848\JLink_V848\JLinkGUIServer.exe
T63D8 000:025.396   Forking J-Link GUI Server: E:\JLink_V848\JLink_V848\JLinkGUIServer.exe
T63D8 000:104.117   J-Link GUI Server info: "J-Link GUI server V8.48 "
T63D8 000:107.227 - 104.181ms returns "O.K."
T63D8 000:107.310 JLINK_TIF_Select(JLINKARM_TIF_SWD)
T63D8 000:107.708 - 0.396ms returns 0x00
T63D8 000:107.737 JLINK_ClrRESET()
T63D8 000:107.938 - 0.199ms 
T63D8 000:158.863 JLINK_SetSpeed(1500)
T63D8 000:158.992 - 0.138ms 
T63D8 000:159.017 JLINK_CORESIGHT_Configure(PerformTIFInit=0)
T63D8 000:159.378 - 0.365ms returns 0
T63D8 000:159.393 JLINK_CORESIGHT_ReadAPDPReg(DP reg 0x00)
T63D8 000:159.765   Value=0x6BA02477
T63D8 000:159.775 - 0.384ms returns 0
T63D8 000:159.786 JLINK_CORESIGHT_WriteAPDPReg(DP reg 0x00, 0x0000001F)
T63D8 000:159.964 - 0.177ms returns 0
T63D8 000:159.983 JLINK_CORESIGHT_ReadAPDPReg(DP reg 0x00)
T63D8 000:160.179   Value=0x6BA02477
T63D8 000:160.192 - 0.208ms returns 0
T63D8 000:160.203 JLINK_CORESIGHT_WriteAPDPReg(DP reg 0x02, 0x00000000)
T63D8 000:160.412 - 0.209ms returns 0
T63D8 000:160.424 JLINK_CORESIGHT_WriteAPDPReg(DP reg 0x01, 0x50000000)
T63D8 000:160.612 - 0.188ms returns 0
T63D8 000:160.628 JLINK_CORESIGHT_ReadAPDPReg(DP reg 0x01)
T63D8 000:160.812   Value=0xF0000040
T63D8 000:160.831 - 0.203ms returns 0
T63D8 000:160.843 JLINK_CORESIGHT_WriteAPDPReg(DP reg 0x00, 0x0000001F)
T63D8 000:161.041 - 0.198ms returns 0
T63D8 000:161.058 JLINK_CORESIGHT_ReadAPDPReg(DP reg 0x00)
T63D8 000:161.307   Value=0x6BA02477
T63D8 000:161.318 - 0.261ms returns 0
T63D8 000:161.327 JLINK_CORESIGHT_WriteAPDPReg(DP reg 0x01, 0x54000000)
T63D8 000:161.496 - 0.169ms returns 0
T63D8 000:161.504 JLINK_CORESIGHT_WriteAPDPReg(DP reg 0x01, 0x50000F00)
T63D8 000:161.686 - 0.181ms returns 0
T63D8 000:161.704 JLINK_CORESIGHT_WriteAPDPReg(DP reg 0x02, 0x01000000)
T63D8 000:161.885 - 0.181ms returns 0
T63D8 000:161.897 JLINK_CORESIGHT_WriteAPDPReg(AP reg 0x00, 0x80000002)
T63D8 000:162.076 - 0.178ms returns 0
T63D8 000:162.096 JLINK_CORESIGHT_WriteAPDPReg(AP reg 0x01, 0x80011100)
T63D8 000:162.309 - 0.213ms returns 0
T63D8 000:162.322 JLINK_CORESIGHT_WriteAPDPReg(AP reg 0x03, 0x000000A5)
T63D8 000:162.507 - 0.185ms returns 0
T63D8 000:162.519 JLINK_CORESIGHT_WriteAPDPReg(AP reg 0x00, 0x80000002)
T63D8 000:162.686 - 0.167ms returns 0
T63D8 000:162.698 JLINK_CORESIGHT_WriteAPDPReg(AP reg 0x01, 0x80011100)
T63D8 000:162.884 - 0.185ms returns 0
T63D8 000:162.894 JLINK_CORESIGHT_ReadAPDPReg(AP reg 0x03)
T63D8 000:163.124   Value=0x000000A5
T63D8 000:163.133 - 0.239ms returns 0
T63D8 000:163.140 JLINK_ClrTMS()
T63D8 000:163.193 - 0.052ms 
T63D8 000:168.226 JLINK_SetTCK()
T63D8 000:168.343 - 0.117ms returns 0
T63D8 000:173.369 JLINK_SetRESET()
T63D8 000:173.449 - 0.080ms 
T63D8 000:374.079 JLINK_CORESIGHT_WriteAPDPReg(AP reg 0x00, 0x80000002)
T63D8 000:374.415 - 0.336ms returns 0
T63D8 000:374.435 JLINK_CORESIGHT_WriteAPDPReg(AP reg 0x01, 0x80011100)
T63D8 000:374.649 - 0.214ms returns 0
T63D8 000:374.663 JLINK_CORESIGHT_ReadAPDPReg(AP reg 0x03)
T63D8 000:374.923   Value=0x00000000
T63D8 000:374.937 - 0.274ms returns 0
T63D8 000:374.950 JLINK_CORESIGHT_WriteAPDPReg(AP reg 0x00, 0x80000002)
T63D8 000:375.158 - 0.208ms returns 0
T63D8 000:375.171 JLINK_CORESIGHT_WriteAPDPReg(AP reg 0x01, 0x80011140)
T63D8 000:375.412 - 0.241ms returns 0
T63D8 000:375.426 JLINK_CORESIGHT_ReadAPDPReg(AP reg 0x03)
T63D8 000:375.662   Value=0x00000002
T63D8 000:375.682 - 0.255ms returns 0
T63D8 000:375.694 JLINK_CORESIGHT_WriteAPDPReg(AP reg 0x00, 0x80000002)
T63D8 000:375.886 - 0.191ms returns 0
T63D8 000:375.902 JLINK_CORESIGHT_WriteAPDPReg(AP reg 0x01, 0x80011120)
T63D8 000:376.079 - 0.177ms returns 0
T63D8 000:376.095 JLINK_CORESIGHT_WriteAPDPReg(AP reg 0x03, 0x00000055)
T63D8 000:376.302 - 0.207ms returns 0
T63D8 000:376.320 JLINK_CORESIGHT_WriteAPDPReg(AP reg 0x00, 0x80000002)
T63D8 000:376.499 - 0.179ms returns 0
T63D8 000:376.511 JLINK_CORESIGHT_WriteAPDPReg(AP reg 0x01, 0x80011140)
T63D8 000:376.688 - 0.176ms returns 0
T63D8 000:376.708 JLINK_CORESIGHT_ReadAPDPReg(AP reg 0x03)
T63D8 000:376.935   Value=0x00000000
T63D8 000:376.953 - 0.245ms returns 0
T63D8 000:376.966 JLINK_CORESIGHT_WriteAPDPReg(AP reg 0x00, 0x80000002)
T63D8 000:377.153 - 0.187ms returns 0
T63D8 000:377.165 JLINK_CORESIGHT_WriteAPDPReg(AP reg 0x01, 0x80011130)
T63D8 000:377.337 - 0.172ms returns 0
T63D8 000:377.346 JLINK_CORESIGHT_ReadAPDPReg(AP reg 0x03)
T63D8 000:377.565   Value=0x000000C6
T63D8 000:377.575 - 0.229ms returns 0
T63D8 000:377.587 JLINK_CORESIGHT_WriteAPDPReg(AP reg 0x00, 0x80000002)
T63D8 000:377.781 - 0.193ms returns 0
T63D8 000:377.795 JLINK_CORESIGHT_WriteAPDPReg(AP reg 0x01, 0x80011140)
T63D8 000:377.979 - 0.183ms returns 0
T63D8 000:377.991 JLINK_CORESIGHT_ReadAPDPReg(AP reg 0x03)
T63D8 000:378.304   Value=0x00000002
T63D8 000:378.318 - 0.327ms returns 0
T63D8 000:378.330 JLINK_CORESIGHT_WriteAPDPReg(AP reg 0x00, 0x80000002)
T63D8 000:378.521 - 0.191ms returns 0
T63D8 000:378.533 JLINK_CORESIGHT_WriteAPDPReg(AP reg 0x01, 0x80011120)
T63D8 000:378.722 - 0.188ms returns 0
T63D8 000:378.739 JLINK_CORESIGHT_WriteAPDPReg(AP reg 0x03, 0x3A010001)
T63D8 000:378.921 - 0.182ms returns 0
T63D8 000:378.938 JLINK_CORESIGHT_WriteAPDPReg(AP reg 0x00, 0x80000002)
T63D8 000:379.121 - 0.182ms returns 0
T63D8 000:379.133 JLINK_CORESIGHT_WriteAPDPReg(AP reg 0x01, 0x80011140)
T63D8 000:379.328 - 0.194ms returns 0
T63D8 000:379.340 JLINK_CORESIGHT_ReadAPDPReg(AP reg 0x03)
T63D8 000:379.583   Value=0x00000002
T63D8 000:379.599 - 0.259ms returns 0
T63D8 000:379.611 JLINK_CORESIGHT_WriteAPDPReg(AP reg 0x00, 0x80000002)
T63D8 000:379.803 - 0.192ms returns 0
T63D8 000:379.814 JLINK_CORESIGHT_WriteAPDPReg(AP reg 0x01, 0x80011120)
T63D8 000:380.000 - 0.186ms returns 0
T63D8 000:380.011 JLINK_CORESIGHT_WriteAPDPReg(AP reg 0x03, 0x000003C5)
T63D8 000:380.197 - 0.186ms returns 0
T63D8 000:380.211 JLINK_CORESIGHT_WriteAPDPReg(AP reg 0x00, 0x80000002)
T63D8 000:380.410 - 0.198ms returns 0
T63D8 000:380.421 JLINK_CORESIGHT_WriteAPDPReg(AP reg 0x01, 0x80011140)
T63D8 000:380.594 - 0.173ms returns 0
T63D8 000:380.606 JLINK_CORESIGHT_ReadAPDPReg(AP reg 0x03)
T63D8 000:380.844   Value=0x00000002
T63D8 000:380.857 - 0.251ms returns 0
T63D8 000:380.869 JLINK_CORESIGHT_ReadAPDPReg(AP reg 0x03)
T63D8 000:381.096   Value=0x00000002
T63D8 000:381.108 - 0.240ms returns 0
T63D8 000:381.119 JLINK_CORESIGHT_ReadAPDPReg(AP reg 0x03)
T63D8 000:381.338   Value=0x00000002
T63D8 000:381.346 - 0.227ms returns 0
T63D8 000:381.354 JLINK_CORESIGHT_ReadAPDPReg(AP reg 0x03)
T63D8 000:381.564   Value=0x00000002
T63D8 000:381.578 - 0.224ms returns 0
T63D8 000:381.590 JLINK_CORESIGHT_ReadAPDPReg(AP reg 0x03)
T63D8 000:381.829   Value=0x00000002
T63D8 000:381.843 - 0.253ms returns 0
T63D8 000:381.854 JLINK_CORESIGHT_ReadAPDPReg(AP reg 0x03)
T63D8 000:382.091   Value=0x00000002
T63D8 000:382.103 - 0.248ms returns 0
T63D8 000:382.111 JLINK_CORESIGHT_ReadAPDPReg(AP reg 0x03)
T63D8 000:382.335   Value=0x00000002
T63D8 000:382.344 - 0.233ms returns 0
T63D8 000:382.352 JLINK_CORESIGHT_ReadAPDPReg(AP reg 0x03)
T63D8 000:382.569   Value=0x00000002
T63D8 000:382.578 - 0.225ms returns 0
T63D8 000:382.585 JLINK_CORESIGHT_ReadAPDPReg(AP reg 0x03)
T63D8 000:382.795   Value=0x00000002
T63D8 000:382.803 - 0.218ms returns 0
T63D8 000:382.810 JLINK_CORESIGHT_ReadAPDPReg(AP reg 0x03)
T63D8 000:383.032   Value=0x00000000
T63D8 000:383.040 - 0.229ms returns 0
T63D8 000:383.048 JLINK_CORESIGHT_WriteAPDPReg(AP reg 0x00, 0x80000002)
T63D8 000:383.313 - 0.265ms returns 0
T63D8 000:383.331 JLINK_CORESIGHT_WriteAPDPReg(AP reg 0x01, 0x80011130)
T63D8 000:383.540 - 0.208ms returns 0
T63D8 000:383.558 JLINK_CORESIGHT_ReadAPDPReg(AP reg 0x03)
T63D8 000:383.799   Value=0x3A2A0081
T63D8 000:383.811 - 0.253ms returns 0
T63D8 000:383.819 JLINK_CORESIGHT_WriteAPDPReg(AP reg 0x00, 0x80000002)
T63D8 000:384.007 - 0.187ms returns 0
T63D8 000:384.017 JLINK_CORESIGHT_WriteAPDPReg(AP reg 0x01, 0x80011140)
T63D8 000:384.201 - 0.183ms returns 0
T63D8 000:384.211 JLINK_CORESIGHT_ReadAPDPReg(AP reg 0x03)
T63D8 000:384.459   Value=0x00000000
T63D8 000:384.477 - 0.266ms returns 0
T63D8 000:384.489 JLINK_CORESIGHT_WriteAPDPReg(AP reg 0x00, 0x80000002)
T63D8 000:384.682 - 0.193ms returns 0
T63D8 000:384.695 JLINK_CORESIGHT_WriteAPDPReg(AP reg 0x01, 0x80011130)
T63D8 000:384.876 - 0.181ms returns 0
T63D8 000:384.893 JLINK_CORESIGHT_ReadAPDPReg(AP reg 0x03)
T63D8 000:385.129   Value=0x808D5B00
T63D8 000:385.138 - 0.245ms returns 0
T63D8 000:385.145 JLINK_CORESIGHT_WriteAPDPReg(AP reg 0x00, 0x80000002)
T63D8 000:385.315 - 0.170ms returns 0
T63D8 000:385.324 JLINK_CORESIGHT_WriteAPDPReg(AP reg 0x01, 0x80011140)
T63D8 000:385.509 - 0.185ms returns 0
T63D8 000:385.528 JLINK_CORESIGHT_ReadAPDPReg(AP reg 0x03)
T63D8 000:385.799   Value=0x00000000
T63D8 000:385.812 - 0.283ms returns 0
T63D8 000:385.823 JLINK_CORESIGHT_WriteAPDPReg(AP reg 0x00, 0x80000002)
T63D8 000:386.000 - 0.176ms returns 0
T63D8 000:386.009 JLINK_CORESIGHT_WriteAPDPReg(AP reg 0x01, 0x80011130)
T63D8 000:386.186 - 0.176ms returns 0
T63D8 000:386.198 JLINK_CORESIGHT_ReadAPDPReg(AP reg 0x03)
T63D8 000:386.455   Value=0x0603030B
T63D8 000:386.467 - 0.269ms returns 0
T63D8 000:386.477 JLINK_CORESIGHT_WriteAPDPReg(AP reg 0x00, 0x80000002)
T63D8 000:386.665 - 0.187ms returns 0
T63D8 000:386.677 JLINK_CORESIGHT_WriteAPDPReg(AP reg 0x01, 0x80011140)
T63D8 000:386.867 - 0.189ms returns 0
T63D8 000:386.883 JLINK_CORESIGHT_ReadAPDPReg(AP reg 0x03)
T63D8 000:387.122   Value=0x00000000
T63D8 000:387.137 - 0.253ms returns 0
T63D8 000:387.155 JLINK_CORESIGHT_WriteAPDPReg(AP reg 0x00, 0x80000002)
T63D8 000:387.339 - 0.184ms returns 0
T63D8 000:387.356 JLINK_CORESIGHT_WriteAPDPReg(AP reg 0x01, 0x80011130)
T63D8 000:387.530 - 0.174ms returns 0
T63D8 000:387.546 JLINK_CORESIGHT_ReadAPDPReg(AP reg 0x03)
T63D8 000:387.789   Value=0x2F4B4E20
T63D8 000:387.806 - 0.260ms returns 0
T63D8 000:387.823 JLINK_CORESIGHT_WriteAPDPReg(AP reg 0x00, 0x80000002)
T63D8 000:388.021 - 0.199ms returns 0
T63D8 000:388.038 JLINK_CORESIGHT_WriteAPDPReg(AP reg 0x01, 0x80011140)
T63D8 000:388.301 - 0.263ms returns 0
T63D8 000:388.969 JLINK_CORESIGHT_ReadAPDPReg(AP reg 0x03)
T63D8 000:389.309   Value=0x00000000
T63D8 000:389.326 - 0.357ms returns 0
T63D8 000:389.338 JLINK_CORESIGHT_WriteAPDPReg(AP reg 0x00, 0x80000002)
T63D8 000:389.525 - 0.187ms returns 0
T63D8 000:389.538 JLINK_CORESIGHT_WriteAPDPReg(AP reg 0x01, 0x80011130)
T63D8 000:389.728 - 0.190ms returns 0
T63D8 000:389.740 JLINK_CORESIGHT_ReadAPDPReg(AP reg 0x03)
T63D8 000:389.974   Value=0x4BEB5250
T63D8 000:389.984 - 0.244ms returns 0
T63D8 000:389.992 JLINK_CORESIGHT_WriteAPDPReg(AP reg 0x00, 0x80000002)
T63D8 000:390.171 - 0.180ms returns 0
T63D8 000:390.180 JLINK_CORESIGHT_WriteAPDPReg(AP reg 0x01, 0x80011140)
T63D8 000:390.409 - 0.229ms returns 0
T63D8 000:390.419 JLINK_CORESIGHT_ReadAPDPReg(AP reg 0x03)
T63D8 000:390.647   Value=0x00000000
T63D8 000:390.662 - 0.243ms returns 0
T63D8 000:390.675 JLINK_CORESIGHT_WriteAPDPReg(AP reg 0x00, 0x80000002)
T63D8 000:390.862 - 0.187ms returns 0
T63D8 000:390.880 JLINK_CORESIGHT_WriteAPDPReg(AP reg 0x01, 0x80011130)
T63D8 000:391.068 - 0.188ms returns 0
T63D8 000:391.085 JLINK_CORESIGHT_ReadAPDPReg(AP reg 0x03)
T63D8 000:391.329   Value=0x38363553
T63D8 000:391.342 - 0.256ms returns 0
T63D8 000:391.352 JLINK_CORESIGHT_WriteAPDPReg(AP reg 0x00, 0x80000002)
T63D8 000:391.542 - 0.190ms returns 0
T63D8 000:391.554 JLINK_CORESIGHT_WriteAPDPReg(AP reg 0x01, 0x80011140)
T63D8 000:391.743 - 0.188ms returns 0
T63D8 000:391.761 JLINK_CORESIGHT_ReadAPDPReg(AP reg 0x03)
T63D8 000:392.000   Value=0x00000000
T63D8 000:392.015 - 0.253ms returns 0
T63D8 000:392.026 JLINK_CORESIGHT_WriteAPDPReg(AP reg 0x00, 0x80000002)
T63D8 000:392.204 - 0.178ms returns 0
T63D8 000:392.213 JLINK_CORESIGHT_WriteAPDPReg(AP reg 0x01, 0x80011130)
T63D8 000:392.408 - 0.194ms returns 0
T63D8 000:392.417 JLINK_CORESIGHT_ReadAPDPReg(AP reg 0x03)
T63D8 000:392.649   Value=0x63064335
T63D8 000:392.666 - 0.249ms returns 0
T63D8 000:392.679 JLINK_CORESIGHT_WriteAPDPReg(AP reg 0x00, 0x80000002)
T63D8 000:392.861 - 0.182ms returns 0
T63D8 000:392.877 JLINK_CORESIGHT_WriteAPDPReg(AP reg 0x01, 0x80011140)
T63D8 000:393.064 - 0.187ms returns 0
T63D8 000:393.080 JLINK_CORESIGHT_ReadAPDPReg(AP reg 0x03)
T63D8 000:393.311   Value=0x00000000
T63D8 000:393.328 - 0.248ms returns 0
T63D8 000:393.340 JLINK_CORESIGHT_WriteAPDPReg(AP reg 0x00, 0x80000002)
T63D8 000:393.528 - 0.187ms returns 0
T63D8 000:393.540 JLINK_CORESIGHT_WriteAPDPReg(AP reg 0x01, 0x80011130)
T63D8 000:393.737 - 0.197ms returns 0
T63D8 000:393.750 JLINK_CORESIGHT_ReadAPDPReg(AP reg 0x03)
T63D8 000:393.990   Value=0x4637526C
T63D8 000:394.007 - 0.257ms returns 0
T63D8 000:394.019 JLINK_CORESIGHT_WriteAPDPReg(AP reg 0x00, 0x80000002)
T63D8 000:394.199 - 0.180ms returns 0
T63D8 000:394.212 JLINK_CORESIGHT_WriteAPDPReg(AP reg 0x01, 0x80011140)
T63D8 000:394.410 - 0.198ms returns 0
T63D8 000:394.423 JLINK_CORESIGHT_ReadAPDPReg(AP reg 0x03)
T63D8 000:394.653   Value=0x00000000
T63D8 000:394.667 - 0.244ms returns 0
T63D8 000:394.679 JLINK_CORESIGHT_WriteAPDPReg(AP reg 0x00, 0x80000002)
T63D8 000:394.858 - 0.178ms returns 0
T63D8 000:394.874 JLINK_CORESIGHT_WriteAPDPReg(AP reg 0x01, 0x80011130)
T63D8 000:395.055 - 0.180ms returns 0
T63D8 000:395.068 JLINK_CORESIGHT_ReadAPDPReg(AP reg 0x03)
T63D8 000:395.307   Value=0x31443841
T63D8 000:395.319 - 0.251ms returns 0
T63D8 000:395.330 JLINK_CORESIGHT_WriteAPDPReg(AP reg 0x00, 0x80000002)
T63D8 000:395.511 - 0.180ms returns 0
T63D8 000:395.523 JLINK_CORESIGHT_WriteAPDPReg(AP reg 0x01, 0x80011140)
T63D8 000:395.717 - 0.193ms returns 0
T63D8 000:395.729 JLINK_CORESIGHT_ReadAPDPReg(AP reg 0x03)
T63D8 000:395.977   Value=0x00000000
T63D8 000:396.003 - 0.273ms returns 0
T63D8 000:396.017 JLINK_CORESIGHT_WriteAPDPReg(AP reg 0x00, 0x80000002)
T63D8 000:396.219 - 0.202ms returns 0
T63D8 000:396.237 JLINK_CORESIGHT_WriteAPDPReg(AP reg 0x01, 0x80011130)
T63D8 000:396.429 - 0.192ms returns 0
T63D8 000:396.441 JLINK_CORESIGHT_ReadAPDPReg(AP reg 0x03)
T63D8 000:396.677   Value=0x43454842
T63D8 000:396.689 - 0.248ms returns 0
T63D8 000:396.699 JLINK_CORESIGHT_WriteAPDPReg(AP reg 0x00, 0x80000002)
T63D8 000:396.883 - 0.184ms returns 0
T63D8 000:396.895 JLINK_CORESIGHT_WriteAPDPReg(AP reg 0x01, 0x80011140)
T63D8 000:397.083 - 0.187ms returns 0
T63D8 000:397.098 JLINK_CORESIGHT_ReadAPDPReg(AP reg 0x03)
T63D8 000:397.348   Value=0x00000000
T63D8 000:397.364 - 0.266ms returns 0
T63D8 000:397.377 JLINK_CORESIGHT_WriteAPDPReg(AP reg 0x00, 0x80000002)
T63D8 000:397.560 - 0.182ms returns 0
T63D8 000:397.577 JLINK_CORESIGHT_WriteAPDPReg(AP reg 0x01, 0x80011130)
T63D8 000:397.767 - 0.189ms returns 0
T63D8 000:397.781 JLINK_CORESIGHT_ReadAPDPReg(AP reg 0x03)
T63D8 000:398.020   Value=0x20204442
T63D8 000:398.064 - 0.283ms returns 0
T63D8 000:398.073 JLINK_CORESIGHT_WriteAPDPReg(AP reg 0x00, 0x80000002)
T63D8 000:398.303 - 0.230ms returns 0
T63D8 000:398.315 JLINK_CORESIGHT_WriteAPDPReg(AP reg 0x01, 0x80011140)
T63D8 000:398.512 - 0.196ms returns 0
T63D8 000:398.528 JLINK_CORESIGHT_ReadAPDPReg(AP reg 0x03)
T63D8 000:398.768   Value=0x00000000
T63D8 000:398.785 - 0.257ms returns 0
T63D8 000:398.804 JLINK_CORESIGHT_WriteAPDPReg(AP reg 0x00, 0x80000002)
T63D8 000:398.997 - 0.192ms returns 0
T63D8 000:399.015 JLINK_CORESIGHT_WriteAPDPReg(AP reg 0x01, 0x80011130)
T63D8 000:399.206 - 0.191ms returns 0
T63D8 000:399.219 JLINK_CORESIGHT_ReadAPDPReg(AP reg 0x03)
T63D8 000:399.454   Value=0x00036520
T63D8 000:399.467 - 0.248ms returns 0
T63D8 000:399.543 JLINK_CORESIGHT_WriteAPDPReg(AP reg 0x00, 0x80000002)
T63D8 000:399.740 - 0.197ms returns 0
T63D8 000:399.760 JLINK_CORESIGHT_WriteAPDPReg(AP reg 0x01, 0x80011140)
T63D8 000:399.948 - 0.188ms returns 0
T63D8 000:399.960 JLINK_CORESIGHT_ReadAPDPReg(AP reg 0x03)
T63D8 000:400.212   Value=0x00000002
T63D8 000:400.222 - 0.261ms returns 0
T63D8 000:400.230 JLINK_CORESIGHT_WriteAPDPReg(AP reg 0x00, 0x80000002)
T63D8 000:400.407 - 0.177ms returns 0
T63D8 000:400.416 JLINK_CORESIGHT_WriteAPDPReg(AP reg 0x01, 0x80011120)
T63D8 000:400.597 - 0.180ms returns 0
T63D8 000:400.617 JLINK_CORESIGHT_WriteAPDPReg(AP reg 0x03, 0x2C010001)
T63D8 000:400.814 - 0.196ms returns 0
T63D8 000:400.834 JLINK_CORESIGHT_WriteAPDPReg(AP reg 0x00, 0x80000002)
T63D8 000:401.014 - 0.179ms returns 0
T63D8 000:401.036 JLINK_CORESIGHT_WriteAPDPReg(AP reg 0x01, 0x80011140)
T63D8 000:401.299 - 0.263ms returns 0
T63D8 000:401.312 JLINK_CORESIGHT_ReadAPDPReg(AP reg 0x03)
T63D8 000:401.544   Value=0x00000002
T63D8 000:401.557 - 0.245ms returns 0
T63D8 000:401.568 JLINK_CORESIGHT_WriteAPDPReg(AP reg 0x00, 0x80000002)
T63D8 000:401.742 - 0.174ms returns 0
T63D8 000:401.753 JLINK_CORESIGHT_WriteAPDPReg(AP reg 0x01, 0x80011120)
T63D8 000:401.941 - 0.187ms returns 0
T63D8 000:401.957 JLINK_CORESIGHT_WriteAPDPReg(AP reg 0x03, 0x000003D3)
T63D8 000:402.145 - 0.188ms returns 0
T63D8 000:402.158 JLINK_CORESIGHT_WriteAPDPReg(AP reg 0x00, 0x80000002)
T63D8 000:402.326 - 0.168ms returns 0
T63D8 000:402.338 JLINK_CORESIGHT_WriteAPDPReg(AP reg 0x01, 0x80011140)
T63D8 000:402.512 - 0.174ms returns 0
T63D8 000:402.524 JLINK_CORESIGHT_ReadAPDPReg(AP reg 0x03)
T63D8 000:402.761   Value=0x00000002
T63D8 000:402.778 - 0.253ms returns 0
T63D8 000:402.790 JLINK_CORESIGHT_ReadAPDPReg(AP reg 0x03)
T63D8 000:403.024   Value=0x00000002
T63D8 000:403.041 - 0.251ms returns 0
T63D8 000:403.054 JLINK_CORESIGHT_ReadAPDPReg(AP reg 0x03)
T63D8 000:403.306   Value=0x00000002
T63D8 000:403.322 - 0.268ms returns 0
T63D8 000:403.334 JLINK_CORESIGHT_ReadAPDPReg(AP reg 0x03)
T63D8 000:403.573   Value=0x00000002
T63D8 000:403.586 - 0.252ms returns 0
T63D8 000:403.597 JLINK_CORESIGHT_ReadAPDPReg(AP reg 0x03)
T63D8 000:403.830   Value=0x00000002
T63D8 000:403.848 - 0.251ms returns 0
T63D8 000:403.860 JLINK_CORESIGHT_ReadAPDPReg(AP reg 0x03)
T63D8 000:404.084   Value=0x00000002
T63D8 000:404.099 - 0.238ms returns 0
T63D8 000:404.111 JLINK_CORESIGHT_ReadAPDPReg(AP reg 0x03)
T63D8 000:404.331   Value=0x00000002
T63D8 000:404.340 - 0.229ms returns 0
T63D8 000:404.348 JLINK_CORESIGHT_ReadAPDPReg(AP reg 0x03)
T63D8 000:404.552   Value=0x00000002
T63D8 000:404.561 - 0.213ms returns 0
T63D8 000:404.569 JLINK_CORESIGHT_ReadAPDPReg(AP reg 0x03)
T63D8 000:404.787   Value=0x00000002
T63D8 000:404.798 - 0.229ms returns 0
T63D8 000:404.806 JLINK_CORESIGHT_ReadAPDPReg(AP reg 0x03)
T63D8 000:405.024   Value=0x00000002
T63D8 000:405.040 - 0.233ms returns 0
T63D8 000:405.052 JLINK_CORESIGHT_ReadAPDPReg(AP reg 0x03)
T63D8 000:405.308   Value=0x00000002
T63D8 000:405.319 - 0.267ms returns 0
T63D8 000:405.328 JLINK_CORESIGHT_ReadAPDPReg(AP reg 0x03)
T63D8 000:405.547   Value=0x00000000
T63D8 000:405.556 - 0.228ms returns 0
T63D8 000:405.564 JLINK_CORESIGHT_WriteAPDPReg(AP reg 0x00, 0x80000002)
T63D8 000:405.786 - 0.222ms returns 0
T63D8 000:405.805 JLINK_CORESIGHT_WriteAPDPReg(AP reg 0x01, 0x80011130)
T63D8 000:405.990 - 0.184ms returns 0
T63D8 000:406.002 JLINK_CORESIGHT_ReadAPDPReg(AP reg 0x03)
T63D8 000:406.301   Value=0x2C020081
T63D8 000:406.316 - 0.314ms returns 0
T63D8 000:406.327 JLINK_CORESIGHT_WriteAPDPReg(AP reg 0x00, 0x80000002)
T63D8 000:406.506 - 0.179ms returns 0
T63D8 000:406.523 JLINK_CORESIGHT_WriteAPDPReg(AP reg 0x01, 0x80011140)
T63D8 000:406.854 - 0.331ms returns 0
T63D8 000:406.871 JLINK_CORESIGHT_ReadAPDPReg(AP reg 0x03)
T63D8 000:407.113   Value=0x00000000
T63D8 000:407.126 - 0.255ms returns 0
T63D8 000:407.143 JLINK_CORESIGHT_WriteAPDPReg(AP reg 0x00, 0x80000002)
T63D8 000:407.324 - 0.182ms returns 0
T63D8 000:407.336 JLINK_CORESIGHT_WriteAPDPReg(AP reg 0x01, 0x80011130)
T63D8 000:407.527 - 0.191ms returns 0
T63D8 000:407.539 JLINK_CORESIGHT_ReadAPDPReg(AP reg 0x03)
T63D8 000:407.774   Value=0x0003CE04
T63D8 000:407.787 - 0.248ms returns 0
T63D8 000:407.801 JLINK_CORESIGHT_WriteAPDPReg(AP reg 0x00, 0x80000002)
T63D8 000:407.988 - 0.187ms returns 0
T63D8 000:408.000 JLINK_CORESIGHT_WriteAPDPReg(AP reg 0x01, 0x80011140)
T63D8 000:408.189 - 0.189ms returns 0
T63D8 000:408.201 JLINK_CORESIGHT_ReadAPDPReg(AP reg 0x03)
T63D8 000:408.454   Value=0x00000002
T63D8 000:408.466 - 0.264ms returns 0
T63D8 000:408.477 JLINK_CORESIGHT_WriteAPDPReg(AP reg 0x00, 0x80000002)
T63D8 000:408.661 - 0.184ms returns 0
T63D8 000:408.673 JLINK_CORESIGHT_WriteAPDPReg(AP reg 0x01, 0x80011120)
T63D8 000:408.861 - 0.187ms returns 0
T63D8 000:408.873 JLINK_CORESIGHT_WriteAPDPReg(AP reg 0x03, 0x73010001)
T63D8 000:409.062 - 0.189ms returns 0
T63D8 000:409.070 JLINK_CORESIGHT_WriteAPDPReg(AP reg 0x00, 0x80000002)
T63D8 000:409.305 - 0.235ms returns 0
T63D8 000:409.313 JLINK_CORESIGHT_WriteAPDPReg(AP reg 0x01, 0x80011140)
T63D8 000:409.489 - 0.175ms returns 0
T63D8 000:409.497 JLINK_CORESIGHT_ReadAPDPReg(AP reg 0x03)
T63D8 000:409.729   Value=0x00000002
T63D8 000:409.737 - 0.240ms returns 0
T63D8 000:409.745 JLINK_CORESIGHT_WriteAPDPReg(AP reg 0x00, 0x80000002)
T63D8 000:409.926 - 0.181ms returns 0
T63D8 000:409.934 JLINK_CORESIGHT_WriteAPDPReg(AP reg 0x01, 0x80011120)
T63D8 000:410.121 - 0.187ms returns 0
T63D8 000:410.138 JLINK_CORESIGHT_WriteAPDPReg(AP reg 0x03, 0x0000038C)
T63D8 000:410.326 - 0.187ms returns 0
T63D8 000:410.335 JLINK_CORESIGHT_WriteAPDPReg(AP reg 0x00, 0x80000002)
T63D8 000:410.517 - 0.182ms returns 0
T63D8 000:410.526 JLINK_CORESIGHT_WriteAPDPReg(AP reg 0x01, 0x80011140)
T63D8 000:410.697 - 0.172ms returns 0
T63D8 000:410.706 JLINK_CORESIGHT_ReadAPDPReg(AP reg 0x03)
T63D8 000:410.934   Value=0x00000002
T63D8 000:410.943 - 0.237ms returns 0
T63D8 000:410.951 JLINK_CORESIGHT_ReadAPDPReg(AP reg 0x03)
T63D8 000:411.166   Value=0x00000002
T63D8 000:411.183 - 0.232ms returns 0
T63D8 000:411.195 JLINK_CORESIGHT_ReadAPDPReg(AP reg 0x03)
T63D8 000:411.445   Value=0x00000002
T63D8 000:411.458 - 0.263ms returns 0
T63D8 000:411.469 JLINK_CORESIGHT_ReadAPDPReg(AP reg 0x03)
T63D8 000:411.697   Value=0x00000002
T63D8 000:411.713 - 0.244ms returns 0
T63D8 000:411.725 JLINK_CORESIGHT_ReadAPDPReg(AP reg 0x03)
T63D8 000:411.964   Value=0x00000002
T63D8 000:411.981 - 0.255ms returns 0
T63D8 000:411.993 JLINK_CORESIGHT_ReadAPDPReg(AP reg 0x03)
T63D8 000:412.312   Value=0x00000002
T63D8 000:412.325 - 0.332ms returns 0
T63D8 000:412.336 JLINK_CORESIGHT_ReadAPDPReg(AP reg 0x03)
T63D8 000:412.562   Value=0x00000002
T63D8 000:412.574 - 0.238ms returns 0
T63D8 000:412.585 JLINK_CORESIGHT_ReadAPDPReg(AP reg 0x03)
T63D8 000:412.821   Value=0x00000002
T63D8 000:412.838 - 0.253ms returns 0
T63D8 000:412.850 JLINK_CORESIGHT_ReadAPDPReg(AP reg 0x03)
T63D8 000:413.085   Value=0x00000002
T63D8 000:413.101 - 0.251ms returns 0
T63D8 000:413.119 JLINK_CORESIGHT_ReadAPDPReg(AP reg 0x03)
T63D8 000:413.344   Value=0x00000000
T63D8 000:413.356 - 0.237ms returns 0
T63D8 000:413.371 JLINK_CORESIGHT_WriteAPDPReg(AP reg 0x00, 0x80000002)
T63D8 000:413.568 - 0.197ms returns 0
T63D8 000:413.625 JLINK_CORESIGHT_WriteAPDPReg(AP reg 0x01, 0x80011130)
T63D8 000:413.806 - 0.180ms returns 0
T63D8 000:413.825 JLINK_CORESIGHT_ReadAPDPReg(AP reg 0x03)
T63D8 000:414.069   Value=0x73020081
T63D8 000:414.114 - 0.287ms returns 0
T63D8 000:415.058 JLINK_CORESIGHT_WriteAPDPReg(AP reg 0x00, 0x80000002)
T63D8 000:415.302 - 0.244ms returns 0
T63D8 000:415.311 JLINK_CORESIGHT_WriteAPDPReg(AP reg 0x01, 0x80011140)
T63D8 000:415.491 - 0.179ms returns 0
T63D8 000:415.504 JLINK_CORESIGHT_ReadAPDPReg(AP reg 0x03)
T63D8 000:415.725   Value=0x00000000
T63D8 000:415.738 - 0.234ms returns 0
T63D8 000:415.747 JLINK_CORESIGHT_WriteAPDPReg(AP reg 0x00, 0x80000002)
T63D8 000:415.921 - 0.174ms returns 0
T63D8 000:415.934 JLINK_CORESIGHT_WriteAPDPReg(AP reg 0x01, 0x80011130)
T63D8 000:416.105 - 0.172ms returns 0
T63D8 000:416.115 JLINK_CORESIGHT_ReadAPDPReg(AP reg 0x03)
T63D8 000:416.337   Value=0x00038902
T63D8 000:416.346 - 0.231ms returns 0
T63D8 000:416.355 JLINK_CORESIGHT_WriteAPDPReg(AP reg 0x00, 0x80000002)
T63D8 000:416.545 - 0.189ms returns 0
T63D8 000:416.554 JLINK_CORESIGHT_WriteAPDPReg(AP reg 0x01, 0x80011140)
T63D8 000:416.781 - 0.227ms returns 0
T63D8 000:416.794 JLINK_CORESIGHT_ReadAPDPReg(AP reg 0x03)
T63D8 000:417.033   Value=0x00000002
T63D8 000:417.050 - 0.256ms returns 0
T63D8 000:417.062 JLINK_CORESIGHT_WriteAPDPReg(AP reg 0x00, 0x80000002)
T63D8 000:417.312 - 0.249ms returns 0
T63D8 000:417.326 JLINK_CORESIGHT_WriteAPDPReg(AP reg 0x01, 0x80011120)
T63D8 000:417.505 - 0.178ms returns 0
T63D8 000:417.517 JLINK_CORESIGHT_WriteAPDPReg(AP reg 0x03, 0x75010001)
T63D8 000:417.696 - 0.179ms returns 0
T63D8 000:417.708 JLINK_CORESIGHT_WriteAPDPReg(AP reg 0x00, 0x80000002)
T63D8 000:417.893 - 0.185ms returns 0
T63D8 000:417.910 JLINK_CORESIGHT_WriteAPDPReg(AP reg 0x01, 0x80011140)
T63D8 000:418.090 - 0.179ms returns 0
T63D8 000:418.103 JLINK_CORESIGHT_ReadAPDPReg(AP reg 0x03)
T63D8 000:418.322   Value=0x00000002
T63D8 000:418.335 - 0.232ms returns 0
T63D8 000:418.346 JLINK_CORESIGHT_WriteAPDPReg(AP reg 0x00, 0x80000002)
T63D8 000:418.521 - 0.175ms returns 0
T63D8 000:418.533 JLINK_CORESIGHT_WriteAPDPReg(AP reg 0x01, 0x80011120)
T63D8 000:418.722 - 0.189ms returns 0
T63D8 000:418.735 JLINK_CORESIGHT_WriteAPDPReg(AP reg 0x03, 0x0000038A)
T63D8 000:418.927 - 0.191ms returns 0
T63D8 000:418.945 JLINK_CORESIGHT_WriteAPDPReg(AP reg 0x00, 0x80000002)
T63D8 000:419.146 - 0.201ms returns 0
T63D8 000:419.160 JLINK_CORESIGHT_WriteAPDPReg(AP reg 0x01, 0x80011140)
T63D8 000:419.340 - 0.180ms returns 0
T63D8 000:419.353 JLINK_CORESIGHT_ReadAPDPReg(AP reg 0x03)
T63D8 000:419.586   Value=0x00000002
T63D8 000:419.599 - 0.246ms returns 0
T63D8 000:419.610 JLINK_CORESIGHT_ReadAPDPReg(AP reg 0x03)
T63D8 000:419.832   Value=0x00000002
T63D8 000:419.845 - 0.235ms returns 0
T63D8 000:419.856 JLINK_CORESIGHT_ReadAPDPReg(AP reg 0x03)
T63D8 000:420.083   Value=0x00000002
T63D8 000:420.091 - 0.235ms returns 0
T63D8 000:420.099 JLINK_CORESIGHT_ReadAPDPReg(AP reg 0x03)
T63D8 000:420.314   Value=0x00000002
T63D8 000:420.327 - 0.227ms returns 0
T63D8 000:420.337 JLINK_CORESIGHT_ReadAPDPReg(AP reg 0x03)
T63D8 000:420.562   Value=0x00000002
T63D8 000:420.572 - 0.234ms returns 0
T63D8 000:420.579 JLINK_CORESIGHT_ReadAPDPReg(AP reg 0x03)
T63D8 000:420.794   Value=0x00000002
T63D8 000:420.803 - 0.223ms returns 0
T63D8 000:420.810 JLINK_CORESIGHT_ReadAPDPReg(AP reg 0x03)
T63D8 000:421.023   Value=0x00000002
T63D8 000:421.032 - 0.222ms returns 0
T63D8 000:421.040 JLINK_CORESIGHT_ReadAPDPReg(AP reg 0x03)
T63D8 000:421.299   Value=0x00000002
T63D8 000:421.307 - 0.267ms returns 0
T63D8 000:421.315 JLINK_CORESIGHT_ReadAPDPReg(AP reg 0x03)
T63D8 000:421.530   Value=0x00000002
T63D8 000:421.540 - 0.225ms returns 0
T63D8 000:421.548 JLINK_CORESIGHT_ReadAPDPReg(AP reg 0x03)
T63D8 000:421.783   Value=0x00000002
T63D8 000:421.801 - 0.252ms returns 0
T63D8 000:421.814 JLINK_CORESIGHT_ReadAPDPReg(AP reg 0x03)
T63D8 000:422.049   Value=0x00000002
T63D8 000:422.064 - 0.250ms returns 0
T63D8 000:422.081 JLINK_CORESIGHT_ReadAPDPReg(AP reg 0x03)
T63D8 000:422.317   Value=0x00000002
T63D8 000:422.330 - 0.248ms returns 0
T63D8 000:422.340 JLINK_CORESIGHT_ReadAPDPReg(AP reg 0x03)
T63D8 000:422.572   Value=0x00000002
T63D8 000:422.584 - 0.244ms returns 0
T63D8 000:422.595 JLINK_CORESIGHT_ReadAPDPReg(AP reg 0x03)
T63D8 000:422.822   Value=0x00000000
T63D8 000:422.839 - 0.244ms returns 0
T63D8 000:422.851 JLINK_CORESIGHT_WriteAPDPReg(AP reg 0x00, 0x80000002)
T63D8 000:423.031 - 0.179ms returns 0
T63D8 000:423.043 JLINK_CORESIGHT_WriteAPDPReg(AP reg 0x01, 0x80011130)
T63D8 000:423.298 - 0.254ms returns 0
T63D8 000:423.307 JLINK_CORESIGHT_ReadAPDPReg(AP reg 0x03)
T63D8 000:423.542   Value=0x75020081
T63D8 000:423.551 - 0.244ms returns 0
T63D8 000:423.558 JLINK_CORESIGHT_WriteAPDPReg(AP reg 0x00, 0x80000002)
T63D8 000:423.783 - 0.224ms returns 0
T63D8 000:423.798 JLINK_CORESIGHT_WriteAPDPReg(AP reg 0x01, 0x80011140)
T63D8 000:423.992 - 0.193ms returns 0
T63D8 000:424.004 JLINK_CORESIGHT_ReadAPDPReg(AP reg 0x03)
T63D8 000:424.310   Value=0x00000000
T63D8 000:424.322 - 0.318ms returns 0
T63D8 000:424.333 JLINK_CORESIGHT_WriteAPDPReg(AP reg 0x00, 0x80000002)
T63D8 000:424.521 - 0.188ms returns 0
T63D8 000:424.532 JLINK_CORESIGHT_WriteAPDPReg(AP reg 0x01, 0x80011130)
T63D8 000:424.714 - 0.181ms returns 0
T63D8 000:424.723 JLINK_CORESIGHT_ReadAPDPReg(AP reg 0x03)
T63D8 000:424.954   Value=0x00038702
T63D8 000:424.963 - 0.240ms returns 0
T63D8 000:424.974 JLINK_CORESIGHT_WriteAPDPReg(AP reg 0x00, 0x80000002)
T63D8 000:425.162 - 0.187ms returns 0
T63D8 000:425.170 JLINK_CORESIGHT_WriteAPDPReg(AP reg 0x01, 0x80011140)
T63D8 000:425.336 - 0.165ms returns 0
T63D8 000:425.344 JLINK_CORESIGHT_ReadAPDPReg(AP reg 0x03)
T63D8 000:425.572   Value=0x00000002
T63D8 000:425.581 - 0.236ms returns 0
T63D8 000:425.588 JLINK_CORESIGHT_WriteAPDPReg(AP reg 0x00, 0x80000002)
T63D8 000:425.764 - 0.175ms returns 0
T63D8 000:425.772 JLINK_CORESIGHT_WriteAPDPReg(AP reg 0x01, 0x80011120)
T63D8 000:425.955 - 0.183ms returns 0
T63D8 000:425.963 JLINK_CORESIGHT_WriteAPDPReg(AP reg 0x03, 0x4F010001)
T63D8 000:426.147 - 0.183ms returns 0
T63D8 000:426.155 JLINK_CORESIGHT_WriteAPDPReg(AP reg 0x00, 0x80000002)
T63D8 000:426.325 - 0.170ms returns 0
T63D8 000:426.333 JLINK_CORESIGHT_WriteAPDPReg(AP reg 0x01, 0x80011140)
T63D8 000:426.506 - 0.173ms returns 0
T63D8 000:426.514 JLINK_CORESIGHT_ReadAPDPReg(AP reg 0x03)
T63D8 000:426.743   Value=0x00000002
T63D8 000:426.752 - 0.238ms returns 0
T63D8 000:426.760 JLINK_CORESIGHT_WriteAPDPReg(AP reg 0x00, 0x80000002)
T63D8 000:426.941 - 0.181ms returns 0
T63D8 000:426.958 JLINK_CORESIGHT_WriteAPDPReg(AP reg 0x01, 0x80011120)
T63D8 000:427.139 - 0.181ms returns 0
T63D8 000:427.148 JLINK_CORESIGHT_WriteAPDPReg(AP reg 0x03, 0x000003B0)
T63D8 000:427.321 - 0.172ms returns 0
T63D8 000:427.330 JLINK_CORESIGHT_WriteAPDPReg(AP reg 0x00, 0x80000002)
T63D8 000:427.505 - 0.175ms returns 0
T63D8 000:427.514 JLINK_CORESIGHT_WriteAPDPReg(AP reg 0x01, 0x80011140)
T63D8 000:427.685 - 0.171ms returns 0
T63D8 000:427.694 JLINK_CORESIGHT_ReadAPDPReg(AP reg 0x03)
T63D8 000:427.924   Value=0x00000002
T63D8 000:427.941 - 0.246ms returns 0
T63D8 000:427.953 JLINK_CORESIGHT_ReadAPDPReg(AP reg 0x03)
T63D8 000:428.179   Value=0x00000002
T63D8 000:428.189 - 0.236ms returns 0
T63D8 000:428.197 JLINK_CORESIGHT_ReadAPDPReg(AP reg 0x03)
T63D8 000:428.453   Value=0x00000002
T63D8 000:428.462 - 0.264ms returns 0
T63D8 000:428.470 JLINK_CORESIGHT_ReadAPDPReg(AP reg 0x03)
T63D8 000:428.684   Value=0x00000002
T63D8 000:428.696 - 0.226ms returns 0
T63D8 000:428.704 JLINK_CORESIGHT_ReadAPDPReg(AP reg 0x03)
T63D8 000:428.932   Value=0x00000002
T63D8 000:428.951 - 0.246ms returns 0
T63D8 000:428.963 JLINK_CORESIGHT_ReadAPDPReg(AP reg 0x03)
T63D8 000:429.205   Value=0x00000002
T63D8 000:429.222 - 0.258ms returns 0
T63D8 000:429.234 JLINK_CORESIGHT_ReadAPDPReg(AP reg 0x03)
T63D8 000:429.461   Value=0x00000002
T63D8 000:429.473 - 0.239ms returns 0
T63D8 000:429.487 JLINK_CORESIGHT_ReadAPDPReg(AP reg 0x03)
T63D8 000:429.716   Value=0x00000002
T63D8 000:429.729 - 0.241ms returns 0
T63D8 000:429.740 JLINK_CORESIGHT_ReadAPDPReg(AP reg 0x03)
T63D8 000:429.963   Value=0x00000002
T63D8 000:429.975 - 0.235ms returns 0
T63D8 000:429.986 JLINK_CORESIGHT_ReadAPDPReg(AP reg 0x03)
T63D8 000:430.204   Value=0x00000002
T63D8 000:430.217 - 0.231ms returns 0
T63D8 000:430.228 JLINK_CORESIGHT_ReadAPDPReg(AP reg 0x03)
T63D8 000:430.455   Value=0x00000002
T63D8 000:430.468 - 0.240ms returns 0
T63D8 000:430.478 JLINK_CORESIGHT_ReadAPDPReg(AP reg 0x03)
T63D8 000:430.694   Value=0x00000002
T63D8 000:430.702 - 0.224ms returns 0
T63D8 000:430.710 JLINK_CORESIGHT_ReadAPDPReg(AP reg 0x03)
T63D8 000:430.922   Value=0x00000002
T63D8 000:430.931 - 0.221ms returns 0
T63D8 000:430.938 JLINK_CORESIGHT_ReadAPDPReg(AP reg 0x03)
T63D8 000:431.153   Value=0x00000000
T63D8 000:431.162 - 0.223ms returns 0
T63D8 000:431.169 JLINK_CORESIGHT_WriteAPDPReg(AP reg 0x00, 0x80000002)
T63D8 000:431.337 - 0.168ms returns 0
T63D8 000:431.347 JLINK_CORESIGHT_WriteAPDPReg(AP reg 0x01, 0x80011130)
T63D8 000:431.527 - 0.179ms returns 0
T63D8 000:431.535 JLINK_CORESIGHT_ReadAPDPReg(AP reg 0x03)
T63D8 000:431.769   Value=0x4F0B0081
T63D8 000:431.777 - 0.242ms returns 0
T63D8 000:431.784 JLINK_CORESIGHT_WriteAPDPReg(AP reg 0x00, 0x80000002)
T63D8 000:431.954 - 0.170ms returns 0
T63D8 000:431.962 JLINK_CORESIGHT_WriteAPDPReg(AP reg 0x01, 0x80011140)
T63D8 000:432.146 - 0.183ms returns 0
T63D8 000:432.154 JLINK_CORESIGHT_ReadAPDPReg(AP reg 0x03)
T63D8 000:432.370   Value=0x00000000
T63D8 000:432.380 - 0.226ms returns 0
T63D8 000:432.388 JLINK_CORESIGHT_WriteAPDPReg(AP reg 0x00, 0x80000002)
T63D8 000:432.570 - 0.181ms returns 0
T63D8 000:432.587 JLINK_CORESIGHT_WriteAPDPReg(AP reg 0x01, 0x80011130)
T63D8 000:432.776 - 0.189ms returns 0
T63D8 000:432.788 JLINK_CORESIGHT_ReadAPDPReg(AP reg 0x03)
T63D8 000:433.017   Value=0x20060000
T63D8 000:433.026 - 0.237ms returns 0
T63D8 000:433.033 JLINK_CORESIGHT_WriteAPDPReg(AP reg 0x00, 0x80000002)
T63D8 000:433.212 - 0.178ms returns 0
T63D8 000:433.221 JLINK_CORESIGHT_WriteAPDPReg(AP reg 0x01, 0x80011140)
T63D8 000:433.413 - 0.192ms returns 0
T63D8 000:433.431 JLINK_CORESIGHT_ReadAPDPReg(AP reg 0x03)
T63D8 000:433.678   Value=0x00000000
T63D8 000:433.694 - 0.262ms returns 0
T63D8 000:433.706 JLINK_CORESIGHT_WriteAPDPReg(AP reg 0x00, 0x80000002)
T63D8 000:433.886 - 0.181ms returns 0
T63D8 000:433.901 JLINK_CORESIGHT_WriteAPDPReg(AP reg 0x01, 0x80011130)
T63D8 000:434.098 - 0.196ms returns 0
T63D8 000:434.110 JLINK_CORESIGHT_ReadAPDPReg(AP reg 0x03)
T63D8 000:434.435   Value=0x00000000
T63D8 000:434.447 - 0.337ms returns 0
T63D8 000:434.455 JLINK_CORESIGHT_WriteAPDPReg(AP reg 0x00, 0x80000002)
T63D8 000:434.629 - 0.174ms returns 0
T63D8 000:434.644 JLINK_CORESIGHT_WriteAPDPReg(AP reg 0x01, 0x80011140)
T63D8 000:434.828 - 0.184ms returns 0
T63D8 000:434.841 JLINK_CORESIGHT_ReadAPDPReg(AP reg 0x03)
T63D8 000:435.064   Value=0x00000000
T63D8 000:435.074 - 0.233ms returns 0
T63D8 000:435.083 JLINK_CORESIGHT_WriteAPDPReg(AP reg 0x00, 0x80000002)
T63D8 000:435.298 - 0.215ms returns 0
T63D8 000:435.307 JLINK_CORESIGHT_WriteAPDPReg(AP reg 0x01, 0x80011130)
T63D8 000:435.489 - 0.182ms returns 0
T63D8 000:435.498 JLINK_CORESIGHT_ReadAPDPReg(AP reg 0x03)
T63D8 000:435.726   Value=0x03800000
T63D8 000:435.735 - 0.237ms returns 0
T63D8 000:435.812 JLINK_CORESIGHT_ReadAPDPReg(DP reg 0x01)
T63D8 000:435.989   Value=0xF0000F40
T63D8 000:435.998 - 0.186ms returns 0
T63D8 000:436.006 JLINK_CORESIGHT_WriteAPDPReg(DP reg 0x01, 0xA0000F40)
T63D8 000:436.186 - 0.180ms returns 0
T63D8 000:436.196 JLINK_CORESIGHT_ReadAPDPReg(DP reg 0x01)
T63D8 000:436.408   Value=0x00000F40
T63D8 000:436.417 - 0.221ms returns 0
T63D8 000:436.425 JLINK_ClrRESET()
T63D8 000:436.572 - 0.147ms 
T63D8 000:547.830 JLINK_Close()
T63D8 000:563.107 - 15.276ms
T63D8 000:563.138   
T63D8 000:563.146   Closed
